
T17C0 000:098 SEGGER J-Link V4.50j Log File (0000ms, 0097ms total)
T17C0 000:098 DLL Compiled: Jun 26 2012 09:19:07 (0000ms, 0097ms total)
T17C0 000:098 Logging started @ 2018-06-27 18:35 (0000ms, 0097ms total)
T17C0 000:098 JLINK_SetWarnOutHandler(...) (0000ms, 0097ms total)
T17C0 000:098 JLINK_OpenEx(...)
Firmware: J-Link V9 compiled Jan 29 2015 11:26:22
Hardware: V9.40
S/N: 59406364
Feature(s): RDI, GDB, FlashDL, FlashBP, JFlash  returns O.K. (0044ms, 0141ms total)
T17C0 000:142 JLINK_SetErrorOutHandler(...) (0000ms, 0141ms total)
T17C0 000:142 JLINK_ExecCommand("Device = STM32F103VC", ...)
                JLINK_ExecCommand("map ram 0x20000000 - 0x2000BFFF", ...)  returns 0x00 (0000ms, 0000ms total)
                JLINK_AddMirrorAreaEx(Addr = 0x00000000, Size = 0x00000000) (0000ms, 0000ms total)
              Device "STM32F103VC" selected (256 KB flash, 48 KB RAM).  returns 0x00 (0004ms, 0145ms total)
T17C0 000:146 JLINK_ExecCommand("ProjectFile = "D:\version_update\S100 1.2\Analyzer_Application\JLinkSettings.ini"", ...)  returns 0x00 (0001ms, 0146ms total)
T17C0 000:151 JLINK_ExecCommand("DisableConnectionTimeout", ...)  returns 0x00 (0000ms, 0146ms total)
T17C0 000:151 JLINK_TIF_Select(JLINKARM_TIF_SWD)  returns 0x00 (0005ms, 0151ms total)
T17C0 000:156 JLINK_SetSpeed(1000) (0001ms, 0152ms total)
T17C0 000:157 JLINK_GetHardwareVersion()  returns 0x16F30 (0000ms, 0152ms total)
T17C0 000:157 JLINK_GetDLLVersion()  returns 45010 (0000ms, 0152ms total)
T17C0 000:157 JLINK_GetFirmwareString(...) (0000ms, 0152ms total)
T17C0 000:162 JLINK_GetDLLVersion()  returns 45010 (0000ms, 0152ms total)
T17C0 000:162 JLINK_GetCompileDateTime() (0000ms, 0152ms total)
T17C0 000:164 JLINK_GetFirmwareString(...) (0000ms, 0152ms total)
T17C0 000:165 JLINK_GetHardwareVersion()  returns 0x16F30 (0000ms, 0152ms total)
T17C0 000:171 JLINK_GetId() >0x108 TIF>Found SWD-DP with ID 0x1BA01477 >0x0D TIF> >0x28 TIF> >0x0D TIF> >0x28 TIF> >0x0D TIF> >0x21 TIF> >0x0D TIF> >0x28 TIF> >0x0D TIF> >0x28 TIF> >0x0D TIF> >0x28 TIF> >0x0D TIF> >0x21 TIF> >0x0D TIF> >0x21 TIF> >0x0D TIF> >0x28 TIF> >0x0D TIF> >0x21 TIF> >0x0D TIF> >0x21 TIF> >0x0D TIF> >0x28 TIF> >0x0D TIF> >0x28 TIF> >0x108 TIF>Found SWD-DP with ID 0x1BA01477 >0x0D TIF> >0x21 TIF> >0x0D TIF> >0x28 TIF> >0x0D TIF> >0x28 TIF> >0x0D TIF> >0x21 TIF> >0x0D TIF> >0x21 TIF>
 >0x0D TIF> >0x28 TIF> >0x0D TIF> >0x21 TIF> >0x0D TIF> >0x21 TIF> >0x0D TIF> >0x21 TIF> >0x0D TIF> >0x21 TIF> >0x0D TIF> >0x21 TIF> >0x0D TIF> >0x28 TIF> >0x0D TIF> >0x28 TIF> >0x0D TIF> >0x21 TIF> >0x0D TIF> >0x21 TIF> >0x0D TIF> >0x28 TIF> >0x0D TIF> >0x21 TIF> >0x0D TIF> >0x21 TIF> >0x0D TIF> >0x28 TIF> >0x0D TIF> >0x21 TIF> >0x0D TIF> >0x21 TIF> >0x0D TIF> >0x28 TIF> >0x0D TIF> >0x28 TIF> >0x0D TIF> >0x28 TIF> >0x0D TIF> >0x21 TIF> >0x0D TIF> >0x21 TIF> >0x0D TIF> >0x28 TIF> >0x0D TIF> >0x28 TIF>
 >0x0D TIF> >0x28 TIF> >0x0D TIF> >0x28 TIF> >0x0D TIF> >0x28 TIF> >0x0D TIF> >0x21 TIF> >0x0D TIF> >0x21 TIF> >0x0D TIF> >0x21 TIF>TPIU fitted.ETM fitted. >0x0D TIF> >0x28 TIF> >0x0D TIF> >0x21 TIF> >0x0D TIF> >0x21 TIF> >0x0D TIF> >0x28 TIF> >0x0D TIF> >0x21 TIF> >0x0D TIF> >0x21 TIF>FPUnit: 6 code (BP) slots and 2 literal slots >0x0D TIF> >0x28 TIF> >0x0D TIF> >0x21 TIF> >0x0D TIF> >0x21 TIF> >0x0D TIF> >0x28 TIF> >0x0D TIF> >0x28 TIF> >0x0D TIF> >0x28 TIF> >0x0D TIF> >0x21 TIF> >0x0D TIF> >0x21 TIF>
 >0x0D TIF> >0x28 TIF> >0x0D TIF> >0x21 TIF> >0x0D TIF> >0x21 TIF> >0x0D TIF> >0x28 TIF> >0x0D TIF> >0x21 TIF> >0x0D TIF> >0x21 TIF>Found Cortex-M3 r1p1, Little endian. >0x0D TIF> >0x21 TIF>  returns 0x1BA01477 (0151ms, 0303ms total)
T17C0 000:322 JLINK_GetDebugInfo(0x100) -- Value=0xE00FF003  returns 0x00 (0000ms, 0303ms total)
T17C0 000:323 JLINK_ReadMem (0xE00FFFF0, 0x0010 Bytes, ...) -- CPU is running -- CPU_ReadMem(16 bytes @ 0xE00FFFF0) -- Data:  0D 00 00 00 10 00 00 00 05 00 00 00 B1 00 00 00  returns 0x00 (0002ms, 0305ms total)
T17C0 000:325 JLINK_ReadMem (0xE00FFFD0, 0x0020 Bytes, ...) -- CPU is running -- CPU_ReadMem(32 bytes @ 0xE00FFFD0) -- Data:  00 00 00 00 00 00 00 00 00 00 00 00 00 00 00 00 ...  returns 0x00 (0002ms, 0307ms total)
T17C0 000:327 JLINK_ReadMem (0xE00FF000, 0x0018 Bytes, ...) -- CPU is running -- CPU_ReadMem(24 bytes @ 0xE00FF000) -- Data:  03 F0 F0 FF 03 20 F0 FF 03 30 F0 FF 03 10 F0 FF ...  returns 0x00 (0002ms, 0309ms total)
T17C0 000:329 JLINK_ReadMemU32(0xE000ED00, 0x0001 Items, ...) -- CPU is running -- CPU_ReadMem(4 bytes @ 0xE000ED00) -- Data:  31 C2 1F 41  returns 0x01 (0001ms, 0310ms total)
T17C0 000:330 JLINK_SetResetType(JLINKARM_RESET_TYPE_NORMAL)  returns JLINKARM_RESET_TYPE_NORMAL (0000ms, 0310ms total)
T17C0 000:330 JLINK_Reset() -- CPU is running -- CPU_WriteMem(4 bytes @ 0xE000EDF0) -- CPU is running -- CPU_WriteMem(4 bytes @ 0xE000EDFC) >0x35 TIF> -- CPU is running -- CPU_WriteMem(4 bytes @ 0xE000ED0C) -- CPU is running -- CPU_ReadMem(4 bytes @ 0xE000EDF0) -- CPU is running -- CPU_ReadMem(4 bytes @ 0xE000EDF0) -- CPU is running -- CPU_WriteMem(4 bytes @ 0xE000EDF0) -- CPU is running -- CPU_WriteMem(4 bytes @ 0xE000EDFC) -- CPU is running -- CPU_ReadMem(4 bytes @ 0xE000EDF0)
 -- CPU_WriteMem(4 bytes @ 0xE0002000) (0024ms, 0334ms total)
T17C0 000:354 JLINK_Halt()  returns 0x00 (0000ms, 0334ms total)
T17C0 000:354 JLINK_IsHalted()  returns TRUE (0000ms, 0334ms total)
T17C0 000:354 JLINK_ReadMemU32(0xE000EDF0, 0x0001 Items, ...) -- CPU_ReadMem(4 bytes @ 0xE000EDF0) -- Data:  03 00 03 00  returns 0x01 (0001ms, 0335ms total)
T17C0 000:355 JLINK_WriteU32(0xE000EDF0, 0xA05F0003) -- CPU_WriteMem(4 bytes @ 0xE000EDF0)  returns 0x00 (0001ms, 0336ms total)
T17C0 000:356 JLINK_WriteU32(0xE000EDFC, 0x01000000) -- CPU_WriteMem(4 bytes @ 0xE000EDFC)  returns 0x00 (0001ms, 0337ms total)
T17C0 000:363 JLINK_GetHWStatus(...)  returns 0x00 (0000ms, 0337ms total)
T17C0 000:367 JLINK_GetNumBPUnits(Type = 0xFFFFFF00)  returns 0x06 (0000ms, 0337ms total)
T17C0 000:367 JLINK_GetNumBPUnits(Type = 0xF0)  returns 0x2000 (0000ms, 0337ms total)
T17C0 000:367 JLINK_GetNumWPUnits()  returns 0x04 (0000ms, 0337ms total)
T17C0 000:371 JLINK_GetSpeed()  returns 0x3E8 (0000ms, 0337ms total)
T17C0 000:375 JLINK_ReadMemU32(0xE000E004, 0x0001 Items, ...) -- CPU_ReadMem(4 bytes @ 0xE000E004) -- Data:  01 00 00 00  returns 0x01 (0001ms, 0338ms total)
T17C0 000:376 JLINK_ReadMemU32(0xE000E004, 0x0001 Items, ...) -- CPU_ReadMem(4 bytes @ 0xE000E004) -- Data:  01 00 00 00  returns 0x01 (0001ms, 0339ms total)
T17C0 000:377 JLINK_WriteMem(0xE0001000, 0x001C Bytes, ...) -- Data:  01 00 00 00 00 00 00 00 00 00 00 00 00 00 00 00 ... -- CPU_WriteMem(28 bytes @ 0xE0001000)  returns 0x1C (0002ms, 0341ms total)
T17C0 000:379 JLINK_ReadMem (0xE0001000, 0x001C Bytes, ...) -- CPU_ReadMem(28 bytes @ 0xE0001000) -- Data:  01 00 00 40 00 00 00 00 00 00 00 00 00 00 00 00 ...  returns 0x00 (0001ms, 0342ms total)
T17C0 000:380 JLINK_Halt()  returns 0x00 (0000ms, 0342ms total)
T17C0 000:380 JLINK_IsHalted()  returns TRUE (0000ms, 0342ms total)
T17C0 000:383 JLINK_WriteMem(0x20000000, 0x0164 Bytes, ...) -- Data:  00 BE 0A E0 0D 78 2D 06 68 40 08 24 40 00 00 D3 ... -- CPU_WriteMem(356 bytes @ 0x20000000)  returns 0x164 (0006ms, 0348ms total)
T17C0 000:389 JLINK_WriteReg(R0, 0x08000000)  returns 0x00 (0000ms, 0348ms total)
T17C0 000:389 JLINK_WriteReg(R1, 0x007A1200)  returns 0x00 (0000ms, 0348ms total)
T17C0 000:389 JLINK_WriteReg(R2, 0x00000001)  returns 0x00 (0000ms, 0348ms total)
T17C0 000:389 JLINK_WriteReg(R3, 0x00000000)  returns 0x00 (0000ms, 0348ms total)
T17C0 000:389 JLINK_WriteReg(R4, 0x00000000)  returns 0x00 (0000ms, 0348ms total)
T17C0 000:389 JLINK_WriteReg(R5, 0x00000000)  returns 0x00 (0000ms, 0348ms total)
T17C0 000:389 JLINK_WriteReg(R6, 0x00000000)  returns 0x00 (0000ms, 0348ms total)
T17C0 000:389 JLINK_WriteReg(R7, 0x00000000)  returns 0x00 (0000ms, 0348ms total)
T17C0 000:389 JLINK_WriteReg(R8, 0x00000000)  returns 0x00 (0000ms, 0348ms total)
T17C0 000:389 JLINK_WriteReg(R9, 0x20000160)  returns 0x00 (0000ms, 0348ms total)
T17C0 000:389 JLINK_WriteReg(R10, 0x00000000)  returns 0x00 (0000ms, 0348ms total)
T17C0 000:389 JLINK_WriteReg(R11, 0x00000000)  returns 0x00 (0000ms, 0348ms total)
T17C0 000:389 JLINK_WriteReg(R12, 0x00000000)  returns 0x00 (0000ms, 0348ms total)
T17C0 000:389 JLINK_WriteReg(R13, 0x20000800)  returns 0x00 (0000ms, 0348ms total)
T17C0 000:389 JLINK_WriteReg(R14, 0x20000001)  returns 0x00 (0000ms, 0348ms total)
T17C0 000:389 JLINK_WriteReg(R15, 0x20000038)  returns 0x00 (0000ms, 0348ms total)
T17C0 000:390 JLINK_WriteReg(XPSR, 0x01000000)  returns 0x00 (0000ms, 0349ms total)
T17C0 000:390 JLINK_WriteReg(MSP, 0x20000800)  returns 0x00 (0000ms, 0349ms total)
T17C0 000:390 JLINK_WriteReg(PSP, 0x20000800)  returns 0x00 (0000ms, 0349ms total)
T17C0 000:390 JLINK_WriteReg(CFBP, 0x00000000)  returns 0x00 (0000ms, 0349ms total)
T17C0 000:390 JLINK_SetBPEx(Addr = 0x20000000, Type = 0xFFFFFFF2) -- CPU_ReadMem(2 bytes @ 0x20000000)  returns 0x00000001 (0001ms, 0350ms total)
T17C0 000:391 JLINK_Go() -- CPU_WriteMem(2 bytes @ 0x20000000) -- CPU_WriteMem(4 bytes @ 0xE0002008) -- CPU_WriteMem(4 bytes @ 0xE000200C) -- CPU_WriteMem(4 bytes @ 0xE0002010) -- CPU_WriteMem(4 bytes @ 0xE0002014) -- CPU_WriteMem(4 bytes @ 0xE0002018) -- CPU_WriteMem(4 bytes @ 0xE000201C) (0011ms, 0361ms total)
T17C0 000:402 JLINK_IsHalted() -- CPU_ReadMem(2 bytes @ 0x20000000)  returns TRUE (0006ms, 0367ms total)
T17C0 000:408 JLINK_ReadReg(R15)  returns 0x20000000 (0000ms, 0361ms total)
T17C0 000:408 JLINK_ClrBPEx(BPHandle = 0x00000001)  returns 0x00 (0000ms, 0361ms total)
T17C0 000:408 JLINK_ReadReg(R0)  returns 0x00000000 (0000ms, 0361ms total)
T17C0 000:409 JLINK_WriteReg(R0, 0x08000000)  returns 0x00 (0000ms, 0361ms total)
T17C0 000:409 JLINK_WriteReg(R1, 0x007A1200)  returns 0x00 (0000ms, 0361ms total)
T17C0 000:409 JLINK_WriteReg(R2, 0x00000001)  returns 0x00 (0000ms, 0361ms total)
T17C0 000:409 JLINK_WriteReg(R3, 0x00000000)  returns 0x00 (0000ms, 0361ms total)
T17C0 000:409 JLINK_WriteReg(R4, 0x00000000)  returns 0x00 (0000ms, 0361ms total)
T17C0 000:409 JLINK_WriteReg(R5, 0x00000000)  returns 0x00 (0000ms, 0361ms total)
T17C0 000:409 JLINK_WriteReg(R6, 0x00000000)  returns 0x00 (0000ms, 0361ms total)
T17C0 000:409 JLINK_WriteReg(R7, 0x00000000)  returns 0x00 (0000ms, 0361ms total)
T17C0 000:409 JLINK_WriteReg(R8, 0x00000000)  returns 0x00 (0000ms, 0361ms total)
T17C0 000:409 JLINK_WriteReg(R9, 0x20000160)  returns 0x00 (0000ms, 0361ms total)
T17C0 000:409 JLINK_WriteReg(R10, 0x00000000)  returns 0x00 (0000ms, 0361ms total)
T17C0 000:409 JLINK_WriteReg(R11, 0x00000000)  returns 0x00 (0000ms, 0361ms total)
T17C0 000:409 JLINK_WriteReg(R12, 0x00000000)  returns 0x00 (0000ms, 0361ms total)
T17C0 000:409 JLINK_WriteReg(R13, 0x20000800)  returns 0x00 (0000ms, 0361ms total)
T17C0 000:409 JLINK_WriteReg(R14, 0x20000001)  returns 0x00 (0000ms, 0361ms total)
T17C0 000:409 JLINK_WriteReg(R15, 0x2000007C)  returns 0x00 (0000ms, 0361ms total)
T17C0 000:409 JLINK_WriteReg(XPSR, 0x01000000)  returns 0x00 (0000ms, 0361ms total)
T17C0 000:409 JLINK_WriteReg(MSP, 0x20000800)  returns 0x00 (0000ms, 0361ms total)
T17C0 000:409 JLINK_WriteReg(PSP, 0x20000800)  returns 0x00 (0000ms, 0361ms total)
T17C0 000:409 JLINK_WriteReg(CFBP, 0x00000000)  returns 0x00 (0000ms, 0361ms total)
T17C0 000:409 JLINK_SetBPEx(Addr = 0x20000000, Type = 0xFFFFFFF2)  returns 0x00000002 (0000ms, 0361ms total)
T17C0 000:409 JLINK_Go() -- CPU_WriteMem(4 bytes @ 0xE0002008) -- CPU_WriteMem(4 bytes @ 0xE000200C) -- CPU_WriteMem(4 bytes @ 0xE0002010) -- CPU_WriteMem(4 bytes @ 0xE0002014) -- CPU_WriteMem(4 bytes @ 0xE0002018) -- CPU_WriteMem(4 bytes @ 0xE000201C) (0009ms, 0370ms total)
T17C0 000:418 JLINK_IsHalted()  returns FALSE (0001ms, 0371ms total)
T17C0 000:469 JLINK_IsHalted() -- CPU_ReadMem(2 bytes @ 0x20000000)  returns TRUE (0006ms, 0376ms total)
T17C0 000:475 JLINK_ReadReg(R15)  returns 0x20000000 (0000ms, 0370ms total)
T17C0 000:475 JLINK_ClrBPEx(BPHandle = 0x00000002)  returns 0x00 (0000ms, 0370ms total)
T17C0 000:475 JLINK_ReadReg(R0)  returns 0x00000000 (0000ms, 0370ms total)
T17C0 000:527 JLINK_WriteReg(R0, 0x00000001)  returns 0x00 (0000ms, 0370ms total)
T17C0 000:527 JLINK_WriteReg(R1, 0x007A1200)  returns 0x00 (0000ms, 0370ms total)
T17C0 000:527 JLINK_WriteReg(R2, 0x00000001)  returns 0x00 (0000ms, 0370ms total)
T17C0 000:527 JLINK_WriteReg(R3, 0x00000000)  returns 0x00 (0000ms, 0370ms total)
T17C0 000:527 JLINK_WriteReg(R4, 0x00000000)  returns 0x00 (0000ms, 0370ms total)
T17C0 000:527 JLINK_WriteReg(R5, 0x00000000)  returns 0x00 (0000ms, 0370ms total)
T17C0 000:527 JLINK_WriteReg(R6, 0x00000000)  returns 0x00 (0000ms, 0370ms total)
T17C0 000:527 JLINK_WriteReg(R7, 0x00000000)  returns 0x00 (0000ms, 0370ms total)
T17C0 000:527 JLINK_WriteReg(R8, 0x00000000)  returns 0x00 (0000ms, 0370ms total)
T17C0 000:528 JLINK_WriteReg(R9, 0x20000160)  returns 0x00 (0000ms, 0370ms total)
T17C0 000:528 JLINK_WriteReg(R10, 0x00000000)  returns 0x00 (0000ms, 0370ms total)
T17C0 000:528 JLINK_WriteReg(R11, 0x00000000)  returns 0x00 (0000ms, 0370ms total)
T17C0 000:528 JLINK_WriteReg(R12, 0x00000000)  returns 0x00 (0000ms, 0370ms total)
T17C0 000:528 JLINK_WriteReg(R13, 0x20000800)  returns 0x00 (0000ms, 0370ms total)
T17C0 000:528 JLINK_WriteReg(R14, 0x20000001)  returns 0x00 (0000ms, 0370ms total)
T17C0 000:528 JLINK_WriteReg(R15, 0x2000006A)  returns 0x00 (0000ms, 0370ms total)
T17C0 000:528 JLINK_WriteReg(XPSR, 0x01000000)  returns 0x00 (0000ms, 0370ms total)
T17C0 000:528 JLINK_WriteReg(MSP, 0x20000800)  returns 0x00 (0000ms, 0370ms total)
T17C0 000:528 JLINK_WriteReg(PSP, 0x20000800)  returns 0x00 (0000ms, 0370ms total)
T17C0 000:528 JLINK_WriteReg(CFBP, 0x00000000)  returns 0x00 (0000ms, 0370ms total)
T17C0 000:528 JLINK_SetBPEx(Addr = 0x20000000, Type = 0xFFFFFFF2)  returns 0x00000003 (0000ms, 0370ms total)
T17C0 000:528 JLINK_Go() -- CPU_WriteMem(4 bytes @ 0xE0002008) -- CPU_WriteMem(4 bytes @ 0xE000200C) -- CPU_WriteMem(4 bytes @ 0xE0002010) -- CPU_WriteMem(4 bytes @ 0xE0002014) -- CPU_WriteMem(4 bytes @ 0xE0002018) -- CPU_WriteMem(4 bytes @ 0xE000201C) (0009ms, 0379ms total)
T17C0 000:537 JLINK_IsHalted() -- CPU_ReadMem(2 bytes @ 0x20000000)  returns TRUE (0006ms, 0385ms total)
T17C0 000:543 JLINK_ReadReg(R15)  returns 0x20000000 (0000ms, 0379ms total)
T17C0 000:543 JLINK_ClrBPEx(BPHandle = 0x00000003)  returns 0x00 (0000ms, 0379ms total)
T17C0 000:543 JLINK_ReadReg(R0)  returns 0x00000000 (0000ms, 0379ms total)
T17C0 000:551 JLINK_WriteMem(0x20000000, 0x0164 Bytes, ...) -- Data:  00 BE 0A E0 0D 78 2D 06 68 40 08 24 40 00 00 D3 ... -- CPU_WriteMem(356 bytes @ 0x20000000)  returns 0x164 (0006ms, 0385ms total)
T17C0 000:557 JLINK_WriteReg(R0, 0x08000000)  returns 0x00 (0000ms, 0385ms total)
T17C0 000:557 JLINK_WriteReg(R1, 0x007A1200)  returns 0x00 (0000ms, 0385ms total)
T17C0 000:557 JLINK_WriteReg(R2, 0x00000002)  returns 0x00 (0000ms, 0385ms total)
T17C0 000:557 JLINK_WriteReg(R3, 0x00000000)  returns 0x00 (0000ms, 0385ms total)
T17C0 000:557 JLINK_WriteReg(R4, 0x00000000)  returns 0x00 (0000ms, 0385ms total)
T17C0 000:557 JLINK_WriteReg(R5, 0x00000000)  returns 0x00 (0000ms, 0385ms total)
T17C0 000:558 JLINK_WriteReg(R6, 0x00000000)  returns 0x00 (0000ms, 0386ms total)
T17C0 000:558 JLINK_WriteReg(R7, 0x00000000)  returns 0x00 (0000ms, 0386ms total)
T17C0 000:558 JLINK_WriteReg(R8, 0x00000000)  returns 0x00 (0000ms, 0386ms total)
T17C0 000:558 JLINK_WriteReg(R9, 0x20000160)  returns 0x00 (0000ms, 0386ms total)
T17C0 000:558 JLINK_WriteReg(R10, 0x00000000)  returns 0x00 (0000ms, 0386ms total)
T17C0 000:558 JLINK_WriteReg(R11, 0x00000000)  returns 0x00 (0000ms, 0386ms total)
T17C0 000:558 JLINK_WriteReg(R12, 0x00000000)  returns 0x00 (0000ms, 0386ms total)
T17C0 000:558 JLINK_WriteReg(R13, 0x20000800)  returns 0x00 (0000ms, 0386ms total)
T17C0 000:558 JLINK_WriteReg(R14, 0x20000001)  returns 0x00 (0000ms, 0386ms total)
T17C0 000:558 JLINK_WriteReg(R15, 0x20000038)  returns 0x00 (0000ms, 0386ms total)
T17C0 000:558 JLINK_WriteReg(XPSR, 0x01000000)  returns 0x00 (0000ms, 0386ms total)
T17C0 000:558 JLINK_WriteReg(MSP, 0x20000800)  returns 0x00 (0000ms, 0386ms total)
T17C0 000:558 JLINK_WriteReg(PSP, 0x20000800)  returns 0x00 (0000ms, 0386ms total)
T17C0 000:558 JLINK_WriteReg(CFBP, 0x00000000)  returns 0x00 (0000ms, 0386ms total)
T17C0 000:558 JLINK_SetBPEx(Addr = 0x20000000, Type = 0xFFFFFFF2) -- CPU_ReadMem(2 bytes @ 0x20000000)  returns 0x00000004 (0001ms, 0387ms total)
T17C0 000:559 JLINK_Go() -- CPU_WriteMem(2 bytes @ 0x20000000) -- CPU_WriteMem(4 bytes @ 0xE0002008) -- CPU_WriteMem(4 bytes @ 0xE000200C) -- CPU_WriteMem(4 bytes @ 0xE0002010) -- CPU_WriteMem(4 bytes @ 0xE0002014) -- CPU_WriteMem(4 bytes @ 0xE0002018) -- CPU_WriteMem(4 bytes @ 0xE000201C) (0010ms, 0397ms total)
T17C0 000:569 JLINK_IsHalted() -- CPU_ReadMem(2 bytes @ 0x20000000)  returns TRUE (0006ms, 0403ms total)
T17C0 000:575 JLINK_ReadReg(R15)  returns 0x20000000 (0000ms, 0397ms total)
T17C0 000:575 JLINK_ClrBPEx(BPHandle = 0x00000004)  returns 0x00 (0000ms, 0397ms total)
T17C0 000:575 JLINK_ReadReg(R0)  returns 0x00000000 (0000ms, 0397ms total)
T17C0 000:576 JLINK_WriteMem(0x20000164, 0x0400 Bytes, ...) -- Data:  30 90 00 20 45 01 00 08 5B 4C 00 08 AD 32 00 08 ... -- CPU_WriteMem(1024 bytes @ 0x20000164)  returns 0x400 (0015ms, 0412ms total)
T17C0 000:591 JLINK_WriteReg(R0, 0x08000000)  returns 0x00 (0000ms, 0412ms total)
T17C0 000:591 JLINK_WriteReg(R1, 0x00000400)  returns 0x00 (0000ms, 0412ms total)
T17C0 000:591 JLINK_WriteReg(R2, 0x20000164)  returns 0x00 (0000ms, 0412ms total)
T17C0 000:591 JLINK_WriteReg(R3, 0x00000000)  returns 0x00 (0000ms, 0412ms total)
T17C0 000:591 JLINK_WriteReg(R4, 0x00000000)  returns 0x00 (0000ms, 0412ms total)
T17C0 000:591 JLINK_WriteReg(R5, 0x00000000)  returns 0x00 (0000ms, 0412ms total)
T17C0 000:591 JLINK_WriteReg(R6, 0x00000000)  returns 0x00 (0000ms, 0412ms total)
T17C0 000:591 JLINK_WriteReg(R7, 0x00000000)  returns 0x00 (0001ms, 0413ms total)
T17C0 000:592 JLINK_WriteReg(R8, 0x00000000)  returns 0x00 (0000ms, 0413ms total)
T17C0 000:592 JLINK_WriteReg(R9, 0x20000160)  returns 0x00 (0000ms, 0413ms total)
T17C0 000:592 JLINK_WriteReg(R10, 0x00000000)  returns 0x00 (0000ms, 0413ms total)
T17C0 000:592 JLINK_WriteReg(R11, 0x00000000)  returns 0x00 (0000ms, 0413ms total)
T17C0 000:592 JLINK_WriteReg(R12, 0x00000000)  returns 0x00 (0000ms, 0413ms total)
T17C0 000:592 JLINK_WriteReg(R13, 0x20000800)  returns 0x00 (0000ms, 0413ms total)
T17C0 000:592 JLINK_WriteReg(R14, 0x20000001)  returns 0x00 (0000ms, 0413ms total)
T17C0 000:592 JLINK_WriteReg(R15, 0x200000F4)  returns 0x00 (0000ms, 0413ms total)
T17C0 000:592 JLINK_WriteReg(XPSR, 0x01000000)  returns 0x00 (0000ms, 0413ms total)
T17C0 000:592 JLINK_WriteReg(MSP, 0x20000800)  returns 0x00 (0000ms, 0413ms total)
T17C0 000:592 JLINK_WriteReg(PSP, 0x20000800)  returns 0x00 (0000ms, 0413ms total)
T17C0 000:592 JLINK_WriteReg(CFBP, 0x00000000)  returns 0x00 (0000ms, 0413ms total)
T17C0 000:592 JLINK_SetBPEx(Addr = 0x20000000, Type = 0xFFFFFFF2)  returns 0x00000005 (0000ms, 0413ms total)
T17C0 000:592 JLINK_Go() -- CPU_WriteMem(4 bytes @ 0xE0002008) -- CPU_WriteMem(4 bytes @ 0xE000200C) -- CPU_WriteMem(4 bytes @ 0xE0002010) -- CPU_WriteMem(4 bytes @ 0xE0002014) -- CPU_WriteMem(4 bytes @ 0xE0002018) -- CPU_WriteMem(4 bytes @ 0xE000201C) (0009ms, 0422ms total)
T17C0 000:601 JLINK_IsHalted()  returns FALSE (0001ms, 0423ms total)
T17C0 000:652 JLINK_IsHalted() -- CPU_ReadMem(2 bytes @ 0x20000000)  returns TRUE (0007ms, 0429ms total)
T17C0 000:659 JLINK_ReadReg(R15)  returns 0x20000000 (0000ms, 0422ms total)
T17C0 000:659 JLINK_ClrBPEx(BPHandle = 0x00000005)  returns 0x00 (0000ms, 0422ms total)
T17C0 000:659 JLINK_ReadReg(R0)  returns 0x00000000 (0000ms, 0422ms total)
T17C0 000:660 JLINK_WriteMem(0x20000164, 0x0400 Bytes, ...) -- Data:  00 9A 01 2A 11 DC 00 22 80 1A 4F F0 00 43 61 EB ... -- CPU_WriteMem(1024 bytes @ 0x20000164)  returns 0x400 (0015ms, 0437ms total)
T17C0 000:675 JLINK_WriteReg(R0, 0x08000400)  returns 0x00 (0000ms, 0437ms total)
T17C0 000:675 JLINK_WriteReg(R1, 0x00000400)  returns 0x00 (0000ms, 0437ms total)
T17C0 000:675 JLINK_WriteReg(R2, 0x20000164)  returns 0x00 (0000ms, 0437ms total)
T17C0 000:675 JLINK_WriteReg(R3, 0x00000000)  returns 0x00 (0000ms, 0437ms total)
T17C0 000:675 JLINK_WriteReg(R4, 0x00000000)  returns 0x00 (0000ms, 0437ms total)
T17C0 000:675 JLINK_WriteReg(R5, 0x00000000)  returns 0x00 (0000ms, 0437ms total)
T17C0 000:675 JLINK_WriteReg(R6, 0x00000000)  returns 0x00 (0001ms, 0438ms total)
T17C0 000:676 JLINK_WriteReg(R7, 0x00000000)  returns 0x00 (0000ms, 0438ms total)
T17C0 000:676 JLINK_WriteReg(R8, 0x00000000)  returns 0x00 (0000ms, 0438ms total)
T17C0 000:676 JLINK_WriteReg(R9, 0x20000160)  returns 0x00 (0000ms, 0438ms total)
T17C0 000:676 JLINK_WriteReg(R10, 0x00000000)  returns 0x00 (0000ms, 0438ms total)
T17C0 000:676 JLINK_WriteReg(R11, 0x00000000)  returns 0x00 (0000ms, 0438ms total)
T17C0 000:676 JLINK_WriteReg(R12, 0x00000000)  returns 0x00 (0000ms, 0438ms total)
T17C0 000:676 JLINK_WriteReg(R13, 0x20000800)  returns 0x00 (0000ms, 0438ms total)
T17C0 000:676 JLINK_WriteReg(R14, 0x20000001)  returns 0x00 (0000ms, 0438ms total)
T17C0 000:676 JLINK_WriteReg(R15, 0x200000F4)  returns 0x00 (0000ms, 0438ms total)
T17C0 000:676 JLINK_WriteReg(XPSR, 0x01000000)  returns 0x00 (0000ms, 0438ms total)
T17C0 000:676 JLINK_WriteReg(MSP, 0x20000800)  returns 0x00 (0000ms, 0438ms total)
T17C0 000:676 JLINK_WriteReg(PSP, 0x20000800)  returns 0x00 (0000ms, 0438ms total)
T17C0 000:676 JLINK_WriteReg(CFBP, 0x00000000)  returns 0x00 (0000ms, 0438ms total)
T17C0 000:676 JLINK_SetBPEx(Addr = 0x20000000, Type = 0xFFFFFFF2)  returns 0x00000006 (0000ms, 0438ms total)
T17C0 000:676 JLINK_Go() -- CPU_WriteMem(4 bytes @ 0xE0002008) -- CPU_WriteMem(4 bytes @ 0xE000200C) -- CPU_WriteMem(4 bytes @ 0xE0002010) -- CPU_WriteMem(4 bytes @ 0xE0002014) -- CPU_WriteMem(4 bytes @ 0xE0002018) -- CPU_WriteMem(4 bytes @ 0xE000201C) (0009ms, 0447ms total)
T17C0 000:685 JLINK_IsHalted()  returns FALSE (0001ms, 0448ms total)
T17C0 000:736 JLINK_IsHalted() -- CPU_ReadMem(2 bytes @ 0x20000000)  returns TRUE (0006ms, 0453ms total)
T17C0 000:742 JLINK_ReadReg(R15)  returns 0x20000000 (0000ms, 0447ms total)
T17C0 000:742 JLINK_ClrBPEx(BPHandle = 0x00000006)  returns 0x00 (0000ms, 0447ms total)
T17C0 000:742 JLINK_ReadReg(R0)  returns 0x00000000 (0000ms, 0447ms total)
T17C0 000:743 JLINK_WriteMem(0x20000164, 0x0400 Bytes, ...) -- Data:  04 DB 20 3A 00 FA 02 F1 00 20 70 47 91 40 C2 F1 ... -- CPU_WriteMem(1024 bytes @ 0x20000164)  returns 0x400 (0015ms, 0462ms total)
T17C0 000:758 JLINK_WriteReg(R0, 0x08000800)  returns 0x00 (0000ms, 0462ms total)
T17C0 000:758 JLINK_WriteReg(R1, 0x00000400)  returns 0x00 (0000ms, 0462ms total)
T17C0 000:758 JLINK_WriteReg(R2, 0x20000164)  returns 0x00 (0000ms, 0462ms total)
T17C0 000:758 JLINK_WriteReg(R3, 0x00000000)  returns 0x00 (0000ms, 0462ms total)
T17C0 000:758 JLINK_WriteReg(R4, 0x00000000)  returns 0x00 (0000ms, 0462ms total)
T17C0 000:759 JLINK_WriteReg(R5, 0x00000000)  returns 0x00 (0000ms, 0463ms total)
T17C0 000:759 JLINK_WriteReg(R6, 0x00000000)  returns 0x00 (0000ms, 0463ms total)
T17C0 000:759 JLINK_WriteReg(R7, 0x00000000)  returns 0x00 (0000ms, 0463ms total)
T17C0 000:759 JLINK_WriteReg(R8, 0x00000000)  returns 0x00 (0000ms, 0463ms total)
T17C0 000:759 JLINK_WriteReg(R9, 0x20000160)  returns 0x00 (0000ms, 0463ms total)
T17C0 000:759 JLINK_WriteReg(R10, 0x00000000)  returns 0x00 (0000ms, 0463ms total)
T17C0 000:759 JLINK_WriteReg(R11, 0x00000000)  returns 0x00 (0000ms, 0463ms total)
T17C0 000:759 JLINK_WriteReg(R12, 0x00000000)  returns 0x00 (0000ms, 0463ms total)
T17C0 000:759 JLINK_WriteReg(R13, 0x20000800)  returns 0x00 (0000ms, 0463ms total)
T17C0 000:759 JLINK_WriteReg(R14, 0x20000001)  returns 0x00 (0000ms, 0463ms total)
T17C0 000:759 JLINK_WriteReg(R15, 0x200000F4)  returns 0x00 (0000ms, 0463ms total)
T17C0 000:759 JLINK_WriteReg(XPSR, 0x01000000)  returns 0x00 (0000ms, 0463ms total)
T17C0 000:759 JLINK_WriteReg(MSP, 0x20000800)  returns 0x00 (0000ms, 0463ms total)
T17C0 000:759 JLINK_WriteReg(PSP, 0x20000800)  returns 0x00 (0000ms, 0463ms total)
T17C0 000:759 JLINK_WriteReg(CFBP, 0x00000000)  returns 0x00 (0000ms, 0463ms total)
T17C0 000:759 JLINK_SetBPEx(Addr = 0x20000000, Type = 0xFFFFFFF2)  returns 0x00000007 (0000ms, 0463ms total)
T17C0 000:759 JLINK_Go() -- CPU_WriteMem(4 bytes @ 0xE0002008) -- CPU_WriteMem(4 bytes @ 0xE000200C) -- CPU_WriteMem(4 bytes @ 0xE0002010) -- CPU_WriteMem(4 bytes @ 0xE0002014) -- CPU_WriteMem(4 bytes @ 0xE0002018) -- CPU_WriteMem(4 bytes @ 0xE000201C) (0012ms, 0475ms total)
T17C0 000:771 JLINK_IsHalted()  returns FALSE (0001ms, 0476ms total)
T17C0 000:822 JLINK_IsHalted() -- CPU_ReadMem(2 bytes @ 0x20000000)  returns TRUE (0006ms, 0481ms total)
T17C0 000:828 JLINK_ReadReg(R15)  returns 0x20000000 (0000ms, 0475ms total)
T17C0 000:828 JLINK_ClrBPEx(BPHandle = 0x00000007)  returns 0x00 (0000ms, 0475ms total)
T17C0 000:828 JLINK_ReadReg(R0)  returns 0x00000000 (0000ms, 0475ms total)
T17C0 000:829 JLINK_WriteMem(0x20000164, 0x0400 Bytes, ...) -- Data:  08 27 00 20 01 90 00 26 34 49 08 70 06 F0 60 FD ... -- CPU_WriteMem(1024 bytes @ 0x20000164)  returns 0x400 (0015ms, 0490ms total)
T17C0 000:844 JLINK_WriteReg(R0, 0x08000C00)  returns 0x00 (0000ms, 0490ms total)
T17C0 000:844 JLINK_WriteReg(R1, 0x00000400)  returns 0x00 (0000ms, 0490ms total)
T17C0 000:844 JLINK_WriteReg(R2, 0x20000164)  returns 0x00 (0000ms, 0490ms total)
T17C0 000:844 JLINK_WriteReg(R3, 0x00000000)  returns 0x00 (0000ms, 0490ms total)
T17C0 000:844 JLINK_WriteReg(R4, 0x00000000)  returns 0x00 (0000ms, 0490ms total)
T17C0 000:844 JLINK_WriteReg(R5, 0x00000000)  returns 0x00 (0000ms, 0490ms total)
T17C0 000:844 JLINK_WriteReg(R6, 0x00000000)  returns 0x00 (0001ms, 0491ms total)
T17C0 000:845 JLINK_WriteReg(R7, 0x00000000)  returns 0x00 (0000ms, 0491ms total)
T17C0 000:845 JLINK_WriteReg(R8, 0x00000000)  returns 0x00 (0000ms, 0491ms total)
T17C0 000:845 JLINK_WriteReg(R9, 0x20000160)  returns 0x00 (0000ms, 0491ms total)
T17C0 000:845 JLINK_WriteReg(R10, 0x00000000)  returns 0x00 (0000ms, 0491ms total)
T17C0 000:845 JLINK_WriteReg(R11, 0x00000000)  returns 0x00 (0000ms, 0491ms total)
T17C0 000:845 JLINK_WriteReg(R12, 0x00000000)  returns 0x00 (0000ms, 0491ms total)
T17C0 000:845 JLINK_WriteReg(R13, 0x20000800)  returns 0x00 (0000ms, 0491ms total)
T17C0 000:845 JLINK_WriteReg(R14, 0x20000001)  returns 0x00 (0000ms, 0491ms total)
T17C0 000:845 JLINK_WriteReg(R15, 0x200000F4)  returns 0x00 (0000ms, 0491ms total)
T17C0 000:845 JLINK_WriteReg(XPSR, 0x01000000)  returns 0x00 (0000ms, 0491ms total)
T17C0 000:845 JLINK_WriteReg(MSP, 0x20000800)  returns 0x00 (0000ms, 0491ms total)
T17C0 000:845 JLINK_WriteReg(PSP, 0x20000800)  returns 0x00 (0000ms, 0491ms total)
T17C0 000:845 JLINK_WriteReg(CFBP, 0x00000000)  returns 0x00 (0000ms, 0491ms total)
T17C0 000:845 JLINK_SetBPEx(Addr = 0x20000000, Type = 0xFFFFFFF2)  returns 0x00000008 (0000ms, 0491ms total)
T17C0 000:845 JLINK_Go() -- CPU_WriteMem(4 bytes @ 0xE0002008) -- CPU_WriteMem(4 bytes @ 0xE000200C) -- CPU_WriteMem(4 bytes @ 0xE0002010) -- CPU_WriteMem(4 bytes @ 0xE0002014) -- CPU_WriteMem(4 bytes @ 0xE0002018) -- CPU_WriteMem(4 bytes @ 0xE000201C) (0009ms, 0500ms total)
T17C0 000:854 JLINK_IsHalted()  returns FALSE (0001ms, 0501ms total)
T17C0 000:905 JLINK_IsHalted() -- CPU_ReadMem(2 bytes @ 0x20000000)  returns TRUE (0007ms, 0507ms total)
T17C0 000:912 JLINK_ReadReg(R15)  returns 0x20000000 (0000ms, 0500ms total)
T17C0 000:912 JLINK_ClrBPEx(BPHandle = 0x00000008)  returns 0x00 (0000ms, 0500ms total)
T17C0 000:912 JLINK_ReadReg(R0)  returns 0x00000000 (0000ms, 0500ms total)
T17C0 000:913 JLINK_WriteMem(0x20000164, 0x0400 Bytes, ...) -- Data:  5F FB CD E9 0E 01 12 98 FF F7 39 FB CD E9 06 01 ... -- CPU_WriteMem(1024 bytes @ 0x20000164)  returns 0x400 (0015ms, 0515ms total)
T17C0 000:928 JLINK_WriteReg(R0, 0x08001000)  returns 0x00 (0000ms, 0515ms total)
T17C0 000:928 JLINK_WriteReg(R1, 0x00000400)  returns 0x00 (0000ms, 0515ms total)
T17C0 000:928 JLINK_WriteReg(R2, 0x20000164)  returns 0x00 (0000ms, 0515ms total)
T17C0 000:928 JLINK_WriteReg(R3, 0x00000000)  returns 0x00 (0000ms, 0515ms total)
T17C0 000:928 JLINK_WriteReg(R4, 0x00000000)  returns 0x00 (0000ms, 0515ms total)
T17C0 000:928 JLINK_WriteReg(R5, 0x00000000)  returns 0x00 (0000ms, 0515ms total)
T17C0 000:928 JLINK_WriteReg(R6, 0x00000000)  returns 0x00 (0000ms, 0515ms total)
T17C0 000:929 JLINK_WriteReg(R7, 0x00000000)  returns 0x00 (0000ms, 0515ms total)
T17C0 000:929 JLINK_WriteReg(R8, 0x00000000)  returns 0x00 (0000ms, 0515ms total)
T17C0 000:929 JLINK_WriteReg(R9, 0x20000160)  returns 0x00 (0000ms, 0515ms total)
T17C0 000:929 JLINK_WriteReg(R10, 0x00000000)  returns 0x00 (0000ms, 0515ms total)
T17C0 000:929 JLINK_WriteReg(R11, 0x00000000)  returns 0x00 (0000ms, 0515ms total)
T17C0 000:929 JLINK_WriteReg(R12, 0x00000000)  returns 0x00 (0000ms, 0515ms total)
T17C0 000:929 JLINK_WriteReg(R13, 0x20000800)  returns 0x00 (0000ms, 0515ms total)
T17C0 000:929 JLINK_WriteReg(R14, 0x20000001)  returns 0x00 (0000ms, 0515ms total)
T17C0 000:929 JLINK_WriteReg(R15, 0x200000F4)  returns 0x00 (0000ms, 0515ms total)
T17C0 000:929 JLINK_WriteReg(XPSR, 0x01000000)  returns 0x00 (0000ms, 0515ms total)
T17C0 000:929 JLINK_WriteReg(MSP, 0x20000800)  returns 0x00 (0000ms, 0515ms total)
T17C0 000:929 JLINK_WriteReg(PSP, 0x20000800)  returns 0x00 (0000ms, 0515ms total)
T17C0 000:929 JLINK_WriteReg(CFBP, 0x00000000)  returns 0x00 (0000ms, 0515ms total)
T17C0 000:929 JLINK_SetBPEx(Addr = 0x20000000, Type = 0xFFFFFFF2)  returns 0x00000009 (0000ms, 0515ms total)
T17C0 000:929 JLINK_Go() -- CPU_WriteMem(4 bytes @ 0xE0002008) -- CPU_WriteMem(4 bytes @ 0xE000200C) -- CPU_WriteMem(4 bytes @ 0xE0002010) -- CPU_WriteMem(4 bytes @ 0xE0002014) -- CPU_WriteMem(4 bytes @ 0xE0002018) -- CPU_WriteMem(4 bytes @ 0xE000201C) (0010ms, 0525ms total)
T17C0 000:939 JLINK_IsHalted()  returns FALSE (0001ms, 0526ms total)
T17C0 000:990 JLINK_IsHalted() -- CPU_ReadMem(2 bytes @ 0x20000000)  returns TRUE (0006ms, 0531ms total)
T17C0 000:996 JLINK_ReadReg(R15)  returns 0x20000000 (0000ms, 0525ms total)
T17C0 000:996 JLINK_ClrBPEx(BPHandle = 0x00000009)  returns 0x00 (0000ms, 0525ms total)
T17C0 000:996 JLINK_ReadReg(R0)  returns 0x00000000 (0000ms, 0525ms total)
T17C0 000:997 JLINK_WriteMem(0x20000164, 0x0400 Bytes, ...) -- Data:  B0 B2 03 F0 B1 FB F6 1C 70 2E E2 DB 78 E0 51 48 ... -- CPU_WriteMem(1024 bytes @ 0x20000164)  returns 0x400 (0015ms, 0540ms total)
T17C0 001:012 JLINK_WriteReg(R0, 0x08001400)  returns 0x00 (0001ms, 0541ms total)
T17C0 001:013 JLINK_WriteReg(R1, 0x00000400)  returns 0x00 (0000ms, 0541ms total)
T17C0 001:013 JLINK_WriteReg(R2, 0x20000164)  returns 0x00 (0000ms, 0541ms total)
T17C0 001:013 JLINK_WriteReg(R3, 0x00000000)  returns 0x00 (0000ms, 0541ms total)
T17C0 001:013 JLINK_WriteReg(R4, 0x00000000)  returns 0x00 (0000ms, 0541ms total)
T17C0 001:013 JLINK_WriteReg(R5, 0x00000000)  returns 0x00 (0000ms, 0541ms total)
T17C0 001:013 JLINK_WriteReg(R6, 0x00000000)  returns 0x00 (0000ms, 0541ms total)
T17C0 001:013 JLINK_WriteReg(R7, 0x00000000)  returns 0x00 (0000ms, 0541ms total)
T17C0 001:013 JLINK_WriteReg(R8, 0x00000000)  returns 0x00 (0000ms, 0541ms total)
T17C0 001:013 JLINK_WriteReg(R9, 0x20000160)  returns 0x00 (0000ms, 0541ms total)
T17C0 001:014 JLINK_WriteReg(R10, 0x00000000)  returns 0x00 (0000ms, 0542ms total)
T17C0 001:014 JLINK_WriteReg(R11, 0x00000000)  returns 0x00 (0000ms, 0542ms total)
T17C0 001:014 JLINK_WriteReg(R12, 0x00000000)  returns 0x00 (0000ms, 0542ms total)
T17C0 001:014 JLINK_WriteReg(R13, 0x20000800)  returns 0x00 (0000ms, 0542ms total)
T17C0 001:014 JLINK_WriteReg(R14, 0x20000001)  returns 0x00 (0000ms, 0542ms total)
T17C0 001:014 JLINK_WriteReg(R15, 0x200000F4)  returns 0x00 (0000ms, 0542ms total)
T17C0 001:014 JLINK_WriteReg(XPSR, 0x01000000)  returns 0x00 (0000ms, 0542ms total)
T17C0 001:014 JLINK_WriteReg(MSP, 0x20000800)  returns 0x00 (0000ms, 0542ms total)
T17C0 001:014 JLINK_WriteReg(PSP, 0x20000800)  returns 0x00 (0000ms, 0542ms total)
T17C0 001:014 JLINK_WriteReg(CFBP, 0x00000000)  returns 0x00 (0000ms, 0542ms total)
T17C0 001:014 JLINK_SetBPEx(Addr = 0x20000000, Type = 0xFFFFFFF2)  returns 0x0000000A (0000ms, 0542ms total)
T17C0 001:014 JLINK_Go() -- CPU_WriteMem(4 bytes @ 0xE0002008) -- CPU_WriteMem(4 bytes @ 0xE000200C) -- CPU_WriteMem(4 bytes @ 0xE0002010) -- CPU_WriteMem(4 bytes @ 0xE0002014) -- CPU_WriteMem(4 bytes @ 0xE0002018) -- CPU_WriteMem(4 bytes @ 0xE000201C) (0009ms, 0551ms total)
T17C0 001:024 JLINK_IsHalted()  returns FALSE (0001ms, 0552ms total)
T17C0 001:075 JLINK_IsHalted() -- CPU_ReadMem(2 bytes @ 0x20000000)  returns TRUE (0007ms, 0558ms total)
T17C0 001:082 JLINK_ReadReg(R15)  returns 0x20000000 (0000ms, 0551ms total)
T17C0 001:082 JLINK_ClrBPEx(BPHandle = 0x0000000A)  returns 0x00 (0000ms, 0551ms total)
T17C0 001:082 JLINK_ReadReg(R0)  returns 0x00000000 (0000ms, 0551ms total)
T17C0 001:083 JLINK_WriteMem(0x20000164, 0x0400 Bytes, ...) -- Data:  6B 49 09 88 11 F0 10 0F 01 D0 80 F0 10 00 68 49 ... -- CPU_WriteMem(1024 bytes @ 0x20000164)  returns 0x400 (0015ms, 0566ms total)
T17C0 001:098 JLINK_WriteReg(R0, 0x08001800)  returns 0x00 (0000ms, 0566ms total)
T17C0 001:098 JLINK_WriteReg(R1, 0x00000400)  returns 0x00 (0000ms, 0566ms total)
T17C0 001:098 JLINK_WriteReg(R2, 0x20000164)  returns 0x00 (0000ms, 0566ms total)
T17C0 001:098 JLINK_WriteReg(R3, 0x00000000)  returns 0x00 (0000ms, 0566ms total)
T17C0 001:098 JLINK_WriteReg(R4, 0x00000000)  returns 0x00 (0000ms, 0566ms total)
T17C0 001:098 JLINK_WriteReg(R5, 0x00000000)  returns 0x00 (0000ms, 0566ms total)
T17C0 001:099 JLINK_WriteReg(R6, 0x00000000)  returns 0x00 (0000ms, 0567ms total)
T17C0 001:099 JLINK_WriteReg(R7, 0x00000000)  returns 0x00 (0000ms, 0567ms total)
T17C0 001:099 JLINK_WriteReg(R8, 0x00000000)  returns 0x00 (0000ms, 0567ms total)
T17C0 001:099 JLINK_WriteReg(R9, 0x20000160)  returns 0x00 (0000ms, 0567ms total)
T17C0 001:099 JLINK_WriteReg(R10, 0x00000000)  returns 0x00 (0000ms, 0567ms total)
T17C0 001:099 JLINK_WriteReg(R11, 0x00000000)  returns 0x00 (0000ms, 0567ms total)
T17C0 001:099 JLINK_WriteReg(R12, 0x00000000)  returns 0x00 (0000ms, 0567ms total)
T17C0 001:099 JLINK_WriteReg(R13, 0x20000800)  returns 0x00 (0000ms, 0567ms total)
T17C0 001:099 JLINK_WriteReg(R14, 0x20000001)  returns 0x00 (0000ms, 0567ms total)
T17C0 001:099 JLINK_WriteReg(R15, 0x200000F4)  returns 0x00 (0000ms, 0567ms total)
T17C0 001:099 JLINK_WriteReg(XPSR, 0x01000000)  returns 0x00 (0000ms, 0567ms total)
T17C0 001:099 JLINK_WriteReg(MSP, 0x20000800)  returns 0x00 (0000ms, 0567ms total)
T17C0 001:099 JLINK_WriteReg(PSP, 0x20000800)  returns 0x00 (0001ms, 0568ms total)
T17C0 001:100 JLINK_WriteReg(CFBP, 0x00000000)  returns 0x00 (0000ms, 0568ms total)
T17C0 001:100 JLINK_SetBPEx(Addr = 0x20000000, Type = 0xFFFFFFF2)  returns 0x0000000B (0000ms, 0568ms total)
T17C0 001:100 JLINK_Go() -- CPU_WriteMem(4 bytes @ 0xE0002008) -- CPU_WriteMem(4 bytes @ 0xE000200C) -- CPU_WriteMem(4 bytes @ 0xE0002010) -- CPU_WriteMem(4 bytes @ 0xE0002014) -- CPU_WriteMem(4 bytes @ 0xE0002018) -- CPU_WriteMem(4 bytes @ 0xE000201C) (0009ms, 0577ms total)
T17C0 001:109 JLINK_IsHalted()  returns FALSE (0001ms, 0578ms total)
T17C0 001:160 JLINK_IsHalted() -- CPU_ReadMem(2 bytes @ 0x20000000)  returns TRUE (0008ms, 0585ms total)
T17C0 001:168 JLINK_ReadReg(R15)  returns 0x20000000 (0000ms, 0577ms total)
T17C0 001:168 JLINK_ClrBPEx(BPHandle = 0x0000000B)  returns 0x00 (0000ms, 0577ms total)
T17C0 001:168 JLINK_ReadReg(R0)  returns 0x00000000 (0000ms, 0577ms total)
T17C0 001:169 JLINK_WriteMem(0x20000164, 0x0400 Bytes, ...) -- Data:  28 48 00 68 00 F1 10 05 2E 88 26 48 00 68 07 7A ... -- CPU_WriteMem(1024 bytes @ 0x20000164)  returns 0x400 (0015ms, 0592ms total)
T17C0 001:184 JLINK_WriteReg(R0, 0x08001C00)  returns 0x00 (0000ms, 0592ms total)
T17C0 001:184 JLINK_WriteReg(R1, 0x00000400)  returns 0x00 (0000ms, 0592ms total)
T17C0 001:184 JLINK_WriteReg(R2, 0x20000164)  returns 0x00 (0000ms, 0592ms total)
T17C0 001:184 JLINK_WriteReg(R3, 0x00000000)  returns 0x00 (0000ms, 0592ms total)
T17C0 001:184 JLINK_WriteReg(R4, 0x00000000)  returns 0x00 (0000ms, 0592ms total)
T17C0 001:184 JLINK_WriteReg(R5, 0x00000000)  returns 0x00 (0000ms, 0592ms total)
T17C0 001:184 JLINK_WriteReg(R6, 0x00000000)  returns 0x00 (0000ms, 0592ms total)
T17C0 001:184 JLINK_WriteReg(R7, 0x00000000)  returns 0x00 (0000ms, 0592ms total)
T17C0 001:184 JLINK_WriteReg(R8, 0x00000000)  returns 0x00 (0000ms, 0592ms total)
T17C0 001:184 JLINK_WriteReg(R9, 0x20000160)  returns 0x00 (0000ms, 0592ms total)
T17C0 001:184 JLINK_WriteReg(R10, 0x00000000)  returns 0x00 (0000ms, 0592ms total)
T17C0 001:184 JLINK_WriteReg(R11, 0x00000000)  returns 0x00 (0000ms, 0592ms total)
T17C0 001:184 JLINK_WriteReg(R12, 0x00000000)  returns 0x00 (0000ms, 0592ms total)
T17C0 001:184 JLINK_WriteReg(R13, 0x20000800)  returns 0x00 (0000ms, 0592ms total)
T17C0 001:184 JLINK_WriteReg(R14, 0x20000001)  returns 0x00 (0000ms, 0592ms total)
T17C0 001:184 JLINK_WriteReg(R15, 0x200000F4)  returns 0x00 (0000ms, 0592ms total)
T17C0 001:184 JLINK_WriteReg(XPSR, 0x01000000)  returns 0x00 (0000ms, 0592ms total)
T17C0 001:184 JLINK_WriteReg(MSP, 0x20000800)  returns 0x00 (0000ms, 0592ms total)
T17C0 001:184 JLINK_WriteReg(PSP, 0x20000800)  returns 0x00 (0001ms, 0593ms total)
T17C0 001:185 JLINK_WriteReg(CFBP, 0x00000000)  returns 0x00 (0000ms, 0593ms total)
T17C0 001:185 JLINK_SetBPEx(Addr = 0x20000000, Type = 0xFFFFFFF2)  returns 0x0000000C (0000ms, 0593ms total)
T17C0 001:185 JLINK_Go() -- CPU_WriteMem(4 bytes @ 0xE0002008) -- CPU_WriteMem(4 bytes @ 0xE000200C) -- CPU_WriteMem(4 bytes @ 0xE0002010) -- CPU_WriteMem(4 bytes @ 0xE0002014) -- CPU_WriteMem(4 bytes @ 0xE0002018) -- CPU_WriteMem(4 bytes @ 0xE000201C) (0009ms, 0602ms total)
T17C0 001:194 JLINK_IsHalted()  returns FALSE (0001ms, 0603ms total)
T17C0 001:245 JLINK_IsHalted() -- CPU_ReadMem(2 bytes @ 0x20000000)  returns TRUE (0006ms, 0608ms total)
T17C0 001:251 JLINK_ReadReg(R15)  returns 0x20000000 (0000ms, 0602ms total)
T17C0 001:251 JLINK_ClrBPEx(BPHandle = 0x0000000C)  returns 0x00 (0000ms, 0602ms total)
T17C0 001:251 JLINK_ReadReg(R0)  returns 0x00000000 (0000ms, 0602ms total)
T17C0 001:252 JLINK_WriteMem(0x20000164, 0x0400 Bytes, ...) -- Data:  0E E0 11 48 00 68 00 8A 10 49 09 68 91 F8 2C 10 ... -- CPU_WriteMem(1024 bytes @ 0x20000164)  returns 0x400 (0015ms, 0617ms total)
T17C0 001:267 JLINK_WriteReg(R0, 0x08002000)  returns 0x00 (0000ms, 0617ms total)
T17C0 001:267 JLINK_WriteReg(R1, 0x00000400)  returns 0x00 (0000ms, 0617ms total)
T17C0 001:267 JLINK_WriteReg(R2, 0x20000164)  returns 0x00 (0000ms, 0617ms total)
T17C0 001:267 JLINK_WriteReg(R3, 0x00000000)  returns 0x00 (0000ms, 0617ms total)
T17C0 001:267 JLINK_WriteReg(R4, 0x00000000)  returns 0x00 (0000ms, 0617ms total)
T17C0 001:267 JLINK_WriteReg(R5, 0x00000000)  returns 0x00 (0000ms, 0617ms total)
T17C0 001:267 JLINK_WriteReg(R6, 0x00000000)  returns 0x00 (0000ms, 0617ms total)
T17C0 001:267 JLINK_WriteReg(R7, 0x00000000)  returns 0x00 (0000ms, 0617ms total)
T17C0 001:267 JLINK_WriteReg(R8, 0x00000000)  returns 0x00 (0000ms, 0617ms total)
T17C0 001:267 JLINK_WriteReg(R9, 0x20000160)  returns 0x00 (0000ms, 0617ms total)
T17C0 001:267 JLINK_WriteReg(R10, 0x00000000)  returns 0x00 (0000ms, 0617ms total)
T17C0 001:267 JLINK_WriteReg(R11, 0x00000000)  returns 0x00 (0001ms, 0618ms total)
T17C0 001:268 JLINK_WriteReg(R12, 0x00000000)  returns 0x00 (0000ms, 0618ms total)
T17C0 001:268 JLINK_WriteReg(R13, 0x20000800)  returns 0x00 (0000ms, 0618ms total)
T17C0 001:268 JLINK_WriteReg(R14, 0x20000001)  returns 0x00 (0000ms, 0618ms total)
T17C0 001:268 JLINK_WriteReg(R15, 0x200000F4)  returns 0x00 (0000ms, 0618ms total)
T17C0 001:268 JLINK_WriteReg(XPSR, 0x01000000)  returns 0x00 (0000ms, 0618ms total)
T17C0 001:268 JLINK_WriteReg(MSP, 0x20000800)  returns 0x00 (0000ms, 0618ms total)
T17C0 001:268 JLINK_WriteReg(PSP, 0x20000800)  returns 0x00 (0000ms, 0618ms total)
T17C0 001:268 JLINK_WriteReg(CFBP, 0x00000000)  returns 0x00 (0000ms, 0618ms total)
T17C0 001:268 JLINK_SetBPEx(Addr = 0x20000000, Type = 0xFFFFFFF2)  returns 0x0000000D (0000ms, 0618ms total)
T17C0 001:268 JLINK_Go() -- CPU_WriteMem(4 bytes @ 0xE0002008) -- CPU_WriteMem(4 bytes @ 0xE000200C) -- CPU_WriteMem(4 bytes @ 0xE0002010) -- CPU_WriteMem(4 bytes @ 0xE0002014) -- CPU_WriteMem(4 bytes @ 0xE0002018) -- CPU_WriteMem(4 bytes @ 0xE000201C) (0010ms, 0628ms total)
T17C0 001:278 JLINK_IsHalted()  returns FALSE (0001ms, 0629ms total)
T17C0 001:329 JLINK_IsHalted() -- CPU_ReadMem(2 bytes @ 0x20000000)  returns TRUE (0007ms, 0635ms total)
T17C0 001:336 JLINK_ReadReg(R15)  returns 0x20000000 (0000ms, 0628ms total)
T17C0 001:336 JLINK_ClrBPEx(BPHandle = 0x0000000D)  returns 0x00 (0000ms, 0628ms total)
T17C0 001:336 JLINK_ReadReg(R0)  returns 0x00000000 (0000ms, 0628ms total)
T17C0 001:337 JLINK_WriteMem(0x20000164, 0x0400 Bytes, ...) -- Data:  28 41 01 42 09 D0 09 EB 04 02 91 B2 08 EB 05 02 ... -- CPU_WriteMem(1024 bytes @ 0x20000164)  returns 0x400 (0015ms, 0643ms total)
T17C0 001:352 JLINK_WriteReg(R0, 0x08002400)  returns 0x00 (0000ms, 0643ms total)
T17C0 001:352 JLINK_WriteReg(R1, 0x00000400)  returns 0x00 (0000ms, 0643ms total)
T17C0 001:352 JLINK_WriteReg(R2, 0x20000164)  returns 0x00 (0000ms, 0643ms total)
T17C0 001:352 JLINK_WriteReg(R3, 0x00000000)  returns 0x00 (0000ms, 0643ms total)
T17C0 001:352 JLINK_WriteReg(R4, 0x00000000)  returns 0x00 (0000ms, 0643ms total)
T17C0 001:352 JLINK_WriteReg(R5, 0x00000000)  returns 0x00 (0000ms, 0643ms total)
T17C0 001:352 JLINK_WriteReg(R6, 0x00000000)  returns 0x00 (0000ms, 0643ms total)
T17C0 001:352 JLINK_WriteReg(R7, 0x00000000)  returns 0x00 (0001ms, 0644ms total)
T17C0 001:353 JLINK_WriteReg(R8, 0x00000000)  returns 0x00 (0000ms, 0644ms total)
T17C0 001:353 JLINK_WriteReg(R9, 0x20000160)  returns 0x00 (0000ms, 0644ms total)
T17C0 001:353 JLINK_WriteReg(R10, 0x00000000)  returns 0x00 (0000ms, 0644ms total)
T17C0 001:353 JLINK_WriteReg(R11, 0x00000000)  returns 0x00 (0000ms, 0644ms total)
T17C0 001:353 JLINK_WriteReg(R12, 0x00000000)  returns 0x00 (0000ms, 0644ms total)
T17C0 001:353 JLINK_WriteReg(R13, 0x20000800)  returns 0x00 (0000ms, 0644ms total)
T17C0 001:353 JLINK_WriteReg(R14, 0x20000001)  returns 0x00 (0000ms, 0644ms total)
T17C0 001:353 JLINK_WriteReg(R15, 0x200000F4)  returns 0x00 (0000ms, 0644ms total)
T17C0 001:353 JLINK_WriteReg(XPSR, 0x01000000)  returns 0x00 (0000ms, 0644ms total)
T17C0 001:353 JLINK_WriteReg(MSP, 0x20000800)  returns 0x00 (0000ms, 0644ms total)
T17C0 001:353 JLINK_WriteReg(PSP, 0x20000800)  returns 0x00 (0000ms, 0644ms total)
T17C0 001:353 JLINK_WriteReg(CFBP, 0x00000000)  returns 0x00 (0000ms, 0644ms total)
T17C0 001:353 JLINK_SetBPEx(Addr = 0x20000000, Type = 0xFFFFFFF2)  returns 0x0000000E (0000ms, 0644ms total)
T17C0 001:353 JLINK_Go() -- CPU_WriteMem(4 bytes @ 0xE0002008) -- CPU_WriteMem(4 bytes @ 0xE000200C) -- CPU_WriteMem(4 bytes @ 0xE0002010) -- CPU_WriteMem(4 bytes @ 0xE0002014) -- CPU_WriteMem(4 bytes @ 0xE0002018) -- CPU_WriteMem(4 bytes @ 0xE000201C) (0009ms, 0653ms total)
T17C0 001:362 JLINK_IsHalted()  returns FALSE (0001ms, 0654ms total)
T17C0 001:413 JLINK_IsHalted() -- CPU_ReadMem(2 bytes @ 0x20000000)  returns TRUE (0007ms, 0660ms total)
T17C0 001:420 JLINK_ReadReg(R15)  returns 0x20000000 (0000ms, 0653ms total)
T17C0 001:420 JLINK_ClrBPEx(BPHandle = 0x0000000E)  returns 0x00 (0000ms, 0653ms total)
T17C0 001:420 JLINK_ReadReg(R0)  returns 0x00000000 (0000ms, 0653ms total)
T17C0 001:423 JLINK_WriteMem(0x20000164, 0x0400 Bytes, ...) -- Data:  81 FE 10 E0 0E 48 82 79 0E A1 15 48 06 F0 1A FD ... -- CPU_WriteMem(1024 bytes @ 0x20000164)  returns 0x400 (0015ms, 0668ms total)
T17C0 001:438 JLINK_WriteReg(R0, 0x08002800)  returns 0x00 (0000ms, 0668ms total)
T17C0 001:438 JLINK_WriteReg(R1, 0x00000400)  returns 0x00 (0000ms, 0668ms total)
T17C0 001:438 JLINK_WriteReg(R2, 0x20000164)  returns 0x00 (0000ms, 0668ms total)
T17C0 001:438 JLINK_WriteReg(R3, 0x00000000)  returns 0x00 (0000ms, 0668ms total)
T17C0 001:438 JLINK_WriteReg(R4, 0x00000000)  returns 0x00 (0000ms, 0668ms total)
T17C0 001:438 JLINK_WriteReg(R5, 0x00000000)  returns 0x00 (0000ms, 0668ms total)
T17C0 001:438 JLINK_WriteReg(R6, 0x00000000)  returns 0x00 (0001ms, 0669ms total)
T17C0 001:439 JLINK_WriteReg(R7, 0x00000000)  returns 0x00 (0000ms, 0669ms total)
T17C0 001:439 JLINK_WriteReg(R8, 0x00000000)  returns 0x00 (0000ms, 0669ms total)
T17C0 001:439 JLINK_WriteReg(R9, 0x20000160)  returns 0x00 (0000ms, 0669ms total)
T17C0 001:439 JLINK_WriteReg(R10, 0x00000000)  returns 0x00 (0000ms, 0669ms total)
T17C0 001:439 JLINK_WriteReg(R11, 0x00000000)  returns 0x00 (0000ms, 0669ms total)
T17C0 001:439 JLINK_WriteReg(R12, 0x00000000)  returns 0x00 (0000ms, 0669ms total)
T17C0 001:439 JLINK_WriteReg(R13, 0x20000800)  returns 0x00 (0000ms, 0669ms total)
T17C0 001:439 JLINK_WriteReg(R14, 0x20000001)  returns 0x00 (0000ms, 0669ms total)
T17C0 001:439 JLINK_WriteReg(R15, 0x200000F4)  returns 0x00 (0000ms, 0669ms total)
T17C0 001:439 JLINK_WriteReg(XPSR, 0x01000000)  returns 0x00 (0000ms, 0669ms total)
T17C0 001:439 JLINK_WriteReg(MSP, 0x20000800)  returns 0x00 (0000ms, 0669ms total)
T17C0 001:439 JLINK_WriteReg(PSP, 0x20000800)  returns 0x00 (0000ms, 0669ms total)
T17C0 001:439 JLINK_WriteReg(CFBP, 0x00000000)  returns 0x00 (0000ms, 0669ms total)
T17C0 001:439 JLINK_SetBPEx(Addr = 0x20000000, Type = 0xFFFFFFF2)  returns 0x0000000F (0000ms, 0669ms total)
T17C0 001:439 JLINK_Go() -- CPU_WriteMem(4 bytes @ 0xE0002008) -- CPU_WriteMem(4 bytes @ 0xE000200C) -- CPU_WriteMem(4 bytes @ 0xE0002010) -- CPU_WriteMem(4 bytes @ 0xE0002014) -- CPU_WriteMem(4 bytes @ 0xE0002018) -- CPU_WriteMem(4 bytes @ 0xE000201C) (0010ms, 0679ms total)
T17C0 001:449 JLINK_IsHalted()  returns FALSE (0001ms, 0680ms total)
T17C0 001:500 JLINK_IsHalted() -- CPU_ReadMem(2 bytes @ 0x20000000)  returns TRUE (0006ms, 0685ms total)
T17C0 001:506 JLINK_ReadReg(R15)  returns 0x20000000 (0000ms, 0679ms total)
T17C0 001:506 JLINK_ClrBPEx(BPHandle = 0x0000000F)  returns 0x00 (0000ms, 0679ms total)
T17C0 001:506 JLINK_ReadReg(R0)  returns 0x00000000 (0000ms, 0679ms total)
T17C0 001:507 JLINK_WriteMem(0x20000164, 0x0400 Bytes, ...) -- Data:  2F F8 0E BD 51 B1 4F F0 20 42 52 F8 20 20 42 F0 ... -- CPU_WriteMem(1024 bytes @ 0x20000164)  returns 0x400 (0016ms, 0695ms total)
T17C0 001:523 JLINK_WriteReg(R0, 0x08002C00)  returns 0x00 (0000ms, 0695ms total)
T17C0 001:523 JLINK_WriteReg(R1, 0x00000400)  returns 0x00 (0000ms, 0695ms total)
T17C0 001:523 JLINK_WriteReg(R2, 0x20000164)  returns 0x00 (0000ms, 0695ms total)
T17C0 001:523 JLINK_WriteReg(R3, 0x00000000)  returns 0x00 (0000ms, 0695ms total)
T17C0 001:523 JLINK_WriteReg(R4, 0x00000000)  returns 0x00 (0000ms, 0695ms total)
T17C0 001:523 JLINK_WriteReg(R5, 0x00000000)  returns 0x00 (0000ms, 0695ms total)
T17C0 001:523 JLINK_WriteReg(R6, 0x00000000)  returns 0x00 (0000ms, 0695ms total)
T17C0 001:523 JLINK_WriteReg(R7, 0x00000000)  returns 0x00 (0000ms, 0695ms total)
T17C0 001:523 JLINK_WriteReg(R8, 0x00000000)  returns 0x00 (0000ms, 0695ms total)
T17C0 001:523 JLINK_WriteReg(R9, 0x20000160)  returns 0x00 (0000ms, 0695ms total)
T17C0 001:523 JLINK_WriteReg(R10, 0x00000000)  returns 0x00 (0000ms, 0695ms total)
T17C0 001:523 JLINK_WriteReg(R11, 0x00000000)  returns 0x00 (0000ms, 0695ms total)
T17C0 001:524 JLINK_WriteReg(R12, 0x00000000)  returns 0x00 (0000ms, 0695ms total)
T17C0 001:524 JLINK_WriteReg(R13, 0x20000800)  returns 0x00 (0000ms, 0695ms total)
T17C0 001:524 JLINK_WriteReg(R14, 0x20000001)  returns 0x00 (0000ms, 0695ms total)
T17C0 001:524 JLINK_WriteReg(R15, 0x200000F4)  returns 0x00 (0000ms, 0695ms total)
T17C0 001:524 JLINK_WriteReg(XPSR, 0x01000000)  returns 0x00 (0000ms, 0695ms total)
T17C0 001:524 JLINK_WriteReg(MSP, 0x20000800)  returns 0x00 (0000ms, 0695ms total)
T17C0 001:524 JLINK_WriteReg(PSP, 0x20000800)  returns 0x00 (0000ms, 0695ms total)
T17C0 001:524 JLINK_WriteReg(CFBP, 0x00000000)  returns 0x00 (0000ms, 0695ms total)
T17C0 001:524 JLINK_SetBPEx(Addr = 0x20000000, Type = 0xFFFFFFF2)  returns 0x00000010 (0000ms, 0695ms total)
T17C0 001:524 JLINK_Go() -- CPU_WriteMem(4 bytes @ 0xE0002008) -- CPU_WriteMem(4 bytes @ 0xE000200C) -- CPU_WriteMem(4 bytes @ 0xE0002010) -- CPU_WriteMem(4 bytes @ 0xE0002014) -- CPU_WriteMem(4 bytes @ 0xE0002018) -- CPU_WriteMem(4 bytes @ 0xE000201C) (0009ms, 0704ms total)
T17C0 001:533 JLINK_IsHalted()  returns FALSE (0001ms, 0705ms total)
T17C0 001:584 JLINK_IsHalted() -- CPU_ReadMem(2 bytes @ 0x20000000)  returns TRUE (0006ms, 0710ms total)
T17C0 001:590 JLINK_ReadReg(R15)  returns 0x20000000 (0000ms, 0704ms total)
T17C0 001:590 JLINK_ClrBPEx(BPHandle = 0x00000010)  returns 0x00 (0000ms, 0704ms total)
T17C0 001:590 JLINK_ReadReg(R0)  returns 0x00000000 (0000ms, 0704ms total)
T17C0 001:591 JLINK_WriteMem(0x20000164, 0x0400 Bytes, ...) -- Data:  00 F0 FC FC 04 22 04 49 10 31 28 46 00 F0 F6 FC ... -- CPU_WriteMem(1024 bytes @ 0x20000164)  returns 0x400 (0015ms, 0719ms total)
T17C0 001:606 JLINK_WriteReg(R0, 0x08003000)  returns 0x00 (0000ms, 0719ms total)
T17C0 001:606 JLINK_WriteReg(R1, 0x00000400)  returns 0x00 (0000ms, 0719ms total)
T17C0 001:606 JLINK_WriteReg(R2, 0x20000164)  returns 0x00 (0000ms, 0719ms total)
T17C0 001:606 JLINK_WriteReg(R3, 0x00000000)  returns 0x00 (0000ms, 0719ms total)
T17C0 001:606 JLINK_WriteReg(R4, 0x00000000)  returns 0x00 (0000ms, 0719ms total)
T17C0 001:606 JLINK_WriteReg(R5, 0x00000000)  returns 0x00 (0000ms, 0719ms total)
T17C0 001:606 JLINK_WriteReg(R6, 0x00000000)  returns 0x00 (0001ms, 0720ms total)
T17C0 001:607 JLINK_WriteReg(R7, 0x00000000)  returns 0x00 (0000ms, 0720ms total)
T17C0 001:607 JLINK_WriteReg(R8, 0x00000000)  returns 0x00 (0000ms, 0720ms total)
T17C0 001:607 JLINK_WriteReg(R9, 0x20000160)  returns 0x00 (0000ms, 0720ms total)
